# HZ S RI R 50
6000000 0.4665678143501282 0.7774727940559387
6005972 0.4697783589363098 0.7736601233482361
6011944 0.47558608651161194 0.7705975770950317
6017916 0.480724960565567 0.766515851020813
6023888 0.48510292172431946 0.762344241142273
6029860 0.4903006851673126 0.7582935690879822
6035832 0.49511221051216125 0.7541518807411194
6041804 0.5002681612968445 0.7503159642219543
6047776 0.5053607821464539 0.7455630302429199
6053748 0.5097694396972656 0.7412132024765015
6059720 0.5152974724769592 0.7372866272926331
6065692 0.5191032290458679 0.7324241399765015
6071664 0.5242220759391785 0.7281959056854248
6077636 0.5286660194396973 0.7235076427459717
6083608 0.5332340002059937 0.7188536524772644
6089580 0.5387802124023438 0.7146495580673218
6095552 0.54218989610672 0.710024356842041
6101524 0.5474033951759338 0.7055696845054626
6107496 0.5519289374351501 0.7009456753730774
6113468 0.5562314391136169 0.6960600018501282
6119440 0.5610820055007935 0.6915326118469238
6125412 0.5650628805160522 0.6859515309333801
6131384 0.570130467414856 0.681221067905426
6137356 0.5744070410728455 0.6764664649963379
6143328 0.5790568590164185 0.671068549156189
6149300 0.5827420949935913 0.6661867499351501
6155272 0.587078869342804 0.6612600684165955
6161244 0.5916010141372681 0.6558908224105835
6167216 0.5959303379058838 0.6501982808113098
6173188 0.6005460023880005 0.6454199552536011
6179160 0.6040546298027039 0.6398080587387085
6185132 0.6088351607322693 0.634716272354126
6191104 0.6127189993858337 0.6290638446807861
6197076 0.6171994805335999 0.6234846115112305
6203048 0.6216438412666321 0.6178190112113953
6209020 0.6249845027923584 0.6122069358825684
6214992 0.6295262575149536 0.6065628528594971
6220964 0.6330015659332275 0.6008964776992798
6226936 0.6368629336357117 0.5946311950683594
6232908 0.6407163739204407 0.5890011787414551
6238880 0.6443415284156799 0.5828759670257568
6244852 0.6483412384986877 0.5771769881248474
6250824 0.6527702212333679 0.5709408521652222
6256796 0.6561700701713562 0.5646382570266724
6262768 0.6600341796875 0.5587767362594604
6268740 0.6633028388023376 0.5522555708885193
6274712 0.6667638421058655 0.5462610125541687
6280684 0.6708144545555115 0.5396394729614258
6286656 0.6745644807815552 0.5337522625923157
6292628 0.6772584915161133 0.5263482928276062
6298600 0.680915892124176 0.520313560962677
6304572 0.6843578815460205 0.5137687921524048
6310544 0.6879269480705261 0.5069906115531921
6316516 0.6910855770111084 0.5005801320075989
6322488 0.6948096752166748 0.49297791719436646
6328460 0.6975588202476501 0.48662570118904114
6334432 0.7004532814025879 0.4791368544101715
6340404 0.7037403583526611 0.4724048376083374
6346376 0.7063031792640686 0.46493273973464966
6352348 0.7091726660728455 0.45736804604530334
6358320 0.7112237811088562 0.4511292278766632
6364292 0.7149088978767395 0.4427461624145508
6370264 0.717503547668457 0.43610677123069763
6376236 0.7195590734481812 0.4281485080718994
6382208 0.7232838273048401 0.4202899932861328
6388180 0.7252969145774841 0.41267675161361694
6394152 0.7280598282814026 0.4050767719745636
6400124 0.7296756505966187 0.3973655700683594
6406096 0.7321476340293884 0.38955166935920715
6412068 0.7344256043434143 0.3813878297805786
6418040 0.736200749874115 0.37257981300354004
6424012 0.7382252216339111 0.3645598292350769
6429984 0.7399030923843384 0.35675445199012756
6435956 0.7416464686393738 0.3484005630016327
6441928 0.7427969574928284 0.3393554091453552
6447900 0.7452734112739563 0.33116430044174194
6453872 0.7460716962814331 0.32293909788131714
6459844 0.7480248808860779 0.3145241439342499
6465816 0.7491062879562378 0.30519697070121765
6471788 0.7496947050094604 0.2963372468948364
6477760 0.7515056729316711 0.28705641627311707
6483732 0.7516376376152039 0.27835527062416077
6489704 0.7528386116027832 0.26976844668388367
6495676 0.7538957595825195 0.2598245441913605
6501648 0.7539043426513672 0.2504560947418213
6507620 0.7547662854194641 0.2413189560174942
6513592 0.7546003460884094 0.23162700235843658
6519564 0.7545778751373291 0.22240930795669556
6525536 0.7548758387565613 0.21272437274456024
6531508 0.754298985004425 0.20268745720386505
6537480 0.7540687322616577 0.1937568336725235
6543452 0.7534363865852356 0.18334490060806274
6549424 0.7527498006820679 0.17322707176208496
6555396 0.7517321109771729 0.16307178139686584
6561368 0.7502606511116028 0.15321286022663116
6567340 0.7491629719734192 0.14264103770256042
6573312 0.7479350566864014 0.13226471841335297
6579284 0.7459109425544739 0.12210638076066971
6585256 0.744076132774353 0.11159495264291763
6591228 0.7415978908538818 0.10107116401195526
6597200 0.7392783761024475 0.08987235277891159
6603172 0.7366178035736084 0.07945805788040161
6609144 0.73372882604599 0.0685807541012764
6615116 0.7229072451591492 0.07546661049127579
6621088 0.7200831770896912 0.0648011639714241
6627060 0.7165015339851379 0.05382291600108147
6633032 0.7127730846405029 0.04264914244413376
6639004 0.7091362476348877 0.03188197314739227
6644976 0.7049708366394043 0.02075827307999134
6650948 0.7003212571144104 0.009356505237519741
6656920 0.6952580809593201 -0.0016196202486753464
6662892 0.6913274526596069 -0.012576373293995857
6668864 0.6852313876152039 -0.02405472658574581
6674836 0.6793253421783447 -0.03526507690548897
6680808 0.6731083989143372 -0.046486735343933105
6686780 0.6664566993713379 -0.05761566013097763
6692752 0.659796953201294 -0.0687919482588768
6698724 0.6522310972213745 -0.0801161602139473
6704696 0.6445168852806091 -0.09103556722402573
6710668 0.636553943157196 -0.10227758437395096
6716640 0.6280093193054199 -0.11340132355690002
6722612 0.618954598903656 -0.12436294555664062
6728584 0.6097675561904907 -0.1350700706243515
6734556 0.5999418497085571 -0.14607800543308258
6740528 0.5898621082305908 -0.15663333237171173
6746500 0.5790507197380066 -0.16672292351722717
6752472 0.5674861669540405 -0.17749570310115814
6758444 0.5563647747039795 -0.18722125887870789
6764416 0.5446373820304871 -0.19733977317810059
6770388 0.5318267345428467 -0.2068498432636261
6776360 0.5183866620063782 -0.21631672978401184
6782332 0.504220187664032 -0.22540566325187683
6788304 0.4906564950942993 -0.23376862704753876
6794276 0.4767482280731201 -0.24280917644500732
6800248 0.46087485551834106 -0.2508969008922577
6806220 0.44504669308662415 -0.2581862509250641
6812192 0.42892223596572876 -0.26552048325538635
6818164 0.4123516380786896 -0.27211993932724
6824136 0.3956683576107025 -0.27866342663764954
6830108 0.3769910931587219 -0.2839164137840271
6836080 0.3594229817390442 -0.2888948619365692
6842052 0.34049728512763977 -0.2932109236717224
6848024 0.32151710987091064 -0.29681551456451416
6853996 0.30219221115112305 -0.29975855350494385
6859968 0.282173216342926 -0.30195415019989014
6865940 0.2619210183620453 -0.30336993932724
6871912 0.24148346483707428 -0.3038864731788635
6877884 0.22061201930046082 -0.3035643994808197
6883856 0.19989030063152313 -0.3024645745754242
6889828 0.18335944414138794 -0.29570797085762024
6895800 0.161978617310524 -0.29280170798301697
6901772 0.14025168120861053 -0.28885728120803833
6907744 0.11882422119379044 -0.2843598425388336
6913716 0.09711650758981705 -0.2782996892929077
6919688 0.07568511366844177 -0.2708286643028259
6925660 0.053942807018756866 -0.262760728597641
6931632 0.032619308680295944 -0.2532837390899658
6937604 0.011784774251282215 -0.2426648885011673
6943576 -0.009039046242833138 -0.23063884675502777
6949548 -0.029434015974402428 -0.2183450609445572
6955520 -0.048687148839235306 -0.2036297470331192
6961492 -0.06794227659702301 -0.18887445330619812
6967464 -0.08663991093635559 -0.17277583479881287
6973436 -0.10424494743347168 -0.15539462864398956
6979408 -0.12130279839038849 -0.13714514672756195
6985380 -0.13708797097206116 -0.11794160306453705
6991352 -0.15214385092258453 -0.09750432521104813
6997324 -0.16594773530960083 -0.07635226100683212
7003296 -0.17883391678333282 -0.05452315881848335
7009268 -0.190709188580513 -0.031836044043302536
7015240 -0.20111826062202454 -0.008561475202441216
7021212 -0.21036584675312042 0.015031350776553154
7027184 -0.21798798441886902 0.03920810669660568
7033156 -0.2246442437171936 0.0633300319314003
7039128 -0.2302544265985489 0.0879547968506813
7045100 -0.23378635942935944 0.11263459175825119
7051072 -0.23685306310653687 0.13778895139694214
7057044 -0.2382478415966034 0.1624297946691513
7063016 -0.2390008121728897 0.18740041553974152
7068988 -0.23765495419502258 0.2121073603630066
7074960 -0.23534539341926575 0.23641574382781982
7080932 -0.23179996013641357 0.26060613989830017
7086904 -0.22733905911445618 0.2844197750091553
7092876 -0.22140224277973175 0.30713170766830444
7098848 -0.214471697807312 0.33004653453826904
7104820 -0.20669510960578918 0.35239434242248535
7110792 -0.19803652167320251 0.3736099600791931
7116764 -0.18834014236927032 0.3941759467124939
7122736 -0.17811696231365204 0.41435933113098145
7128708 -0.166927769780159 0.4342198371887207
7134680 -0.1553000956773758 0.4523775279521942
7140652 -0.14230141043663025 0.4703538417816162
7146624 -0.1293715089559555 0.4878110885620117
7152596 -0.11533127725124359 0.5040748715400696
7158568 -0.10128866136074066 0.5193517208099365
7164540 -0.08657959848642349 0.5338413119316101
7170512 -0.0714535117149353 0.5478935837745667
7176484 -0.05619595944881439 0.561122715473175
7182456 -0.0405135452747345 0.5731694102287292
7188428 -0.02455764263868332 0.5846781730651855
7194400 -0.008341307751834393 0.595313310623169
7200372 0.019576095044612885 0.6085306406021118
7206344 0.03595855087041855 0.6177985072135925
7212316 0.052974339574575424 0.6259930729866028
7218288 0.06952573359012604 0.6332346796989441
7224260 0.08667799830436707 0.6405072212219238
7230232 0.10290437191724777 0.6462370157241821
7236204 0.12003901600837708 0.6515503525733948
7242176 0.13700571656227112 0.6563358306884766
7248148 0.15334457159042358 0.6605699062347412
7254120 0.1700058877468109 0.6642540097236633
7260092 0.1857656091451645 0.6672863364219666
7266064 0.2020341008901596 0.6700812578201294
7272036 0.21819563210010529 0.6722109913825989
7278008 0.23402242362499237 0.6734488010406494
7283980 0.25016918778419495 0.6750826239585876
7289952 0.26513296365737915 0.6751376390457153
7295924 0.2805984914302826 0.6756170988082886
7301896 0.29577964544296265 0.6750597357749939
7307868 0.3103863298892975 0.6745038628578186
7313840 0.3254275619983673 0.6735332012176514
7319812 0.3394228518009186 0.6719809174537659
7325784 0.3535279631614685 0.6698455214500427
7331756 0.3677733540534973 0.6678488254547119
7337728 0.3813328742980957 0.6657710075378418
7343700 0.3947291672229767 0.6628721356391907
7349672 0.4076838195323944 0.6593453288078308
7355644 0.42093607783317566 0.6565317511558533
7361616 0.4334873855113983 0.653502881526947
7367588 0.4460197985172272 0.649482250213623
7373560 0.45820653438568115 0.6454627513885498
7379532 0.46987423300743103 0.6410500407218933
7385504 0.48256582021713257 0.6367380619049072
7391476 0.49362456798553467 0.632512092590332
7397448 0.5050470232963562 0.6276171803474426
7403420 0.5162966847419739 0.6225681304931641
7409392 0.5269355177879333 0.617387056350708
7415364 0.5377363562583923 0.6126087307929993
7421336 0.5480919480323792 0.6068333387374878
7427308 0.5581679344177246 0.6009100079536438
7433280 0.5677936673164368 0.5957738757133484
7439252 0.577540397644043 0.5895838141441345
7445224 0.5872206091880798 0.5840798616409302
7451196 0.5964687466621399 0.5779208540916443
7457168 0.6058449149131775 0.571671187877655
7463140 0.6145281791687012 0.5654799342155457
7469112 0.6237526535987854 0.5592811107635498
7475084 0.6321747899055481 0.552932858467102
7481056 0.6405500173568726 0.5457682013511658
7487028 0.6483908891677856 0.5394323468208313
7493000 0.6565387845039368 0.5329573154449463
7498972 0.6642982363700867 0.5265116095542908
7504944 0.6722601056098938 0.5196279287338257
7510916 0.6794682145118713 0.5124351978302002
7516888 0.686546802520752 0.5057328939437866
7522860 0.6939035654067993 0.49882614612579346
7528832 0.700770914554596 0.4924076497554779
7534804 0.7077035903930664 0.48524320125579834
7540776 0.7139567136764526 0.477999746799469
7546748 0.7208980321884155 0.47058942914009094
7552720 0.7272647023200989 0.4634857177734375
7558692 0.7334161996841431 0.45633241534233093
7564664 0.7394384741783142 0.44882526993751526
7570636 0.7450550198554993 0.44187062978744507
7576608 0.751047670841217 0.4344455599784851
7582580 0.7567631602287292 0.42735856771469116
7588552 0.7622308731079102 0.4199342131614685
7594524 0.7675544619560242 0.41240617632865906
7600496 0.7721878290176392 0.4050687253475189
7606468 0.7780975699424744 0.3980519473552704
7612440 0.7828492522239685 0.3908551335334778
7618412 0.7879622578620911 0.38309118151664734
7624384 0.7923796772956848 0.3758523166179657
7630356 0.7966259717941284 0.36826860904693604
7636328 0.8015861511230469 0.3609740734100342
7642300 0.8055197596549988 0.35348010063171387
7648272 0.8097491264343262 0.3459966778755188
7654244 0.8136671781539917 0.33844074606895447
7660216 0.8176088929176331 0.33101919293403625
7666188 0.8218726515769958 0.3236134350299835
7672160 0.8254287242889404 0.31639695167541504
7678132 0.8289770483970642 0.3086622655391693
7684104 0.8322257399559021 0.30137285590171814
7690076 0.8357753157615662 0.2940022349357605
7696048 0.8395956158638 0.28670763969421387
7702020 0.8420189619064331 0.27947527170181274
7707992 0.845507025718689 0.2718052268028259
7713964 0.8485680818557739 0.2646331191062927
7719936 0.8516746163368225 0.25722914934158325
7725908 0.8547686338424683 0.24997496604919434
7731880 0.8569475412368774 0.24250847101211548
7737852 0.8601752519607544 0.2349163144826889
7743824 0.8622693419456482 0.22784437239170074
7749796 0.8651267886161804 0.22031234204769135
7755768 0.8673380613327026 0.21291573345661163
7761740 0.8695728778839111 0.20547670125961304
7767712 0.8717918395996094 0.19805441796779633
7773684 0.873971164226532 0.1908271461725235
7779656 0.876331627368927 0.18336747586727142
7785628 0.8785034418106079 0.17657557129859924
7791600 0.8802907466888428 0.16889271140098572
7797572 0.8817797899246216 0.161123126745224
7803544 0.8833393454551697 0.15444861352443695
7809516 0.8856828212738037 0.1472187489271164
7815488 0.8871259689331055 0.14004658162593842
7821460 0.8884932398796082 0.1327063888311386
7827432 0.8898071050643921 0.1253313571214676
7833404 0.8910939693450928 0.11842665076255798
7839376 0.892986536026001 0.11132024228572845
7845348 0.8935893177986145 0.10438733547925949
7851320 0.8952778577804565 0.09693365544080734
7857292 0.8957520127296448 0.09016924351453781
7863264 0.8974200487136841 0.08291316777467728
7869236 0.8985073566436768 0.0759633257985115
7875208 0.8987568020820618 0.0689384862780571
7881180 0.9001850485801697 0.0618085041642189
7887152 0.9005742073059082 0.054935675114393234
7893124 0.9012501835823059 0.047746218740940094
7899096 0.9022650122642517 0.04091554507613182
7905068 0.9022088050842285 0.03386888653039932
7911040 0.90301913022995 0.026950499042868614
7917012 0.9031091928482056 0.02011938765645027
7922984 0.904297411441803 0.013343831524252892
7928956 0.9046820402145386 0.006616111844778061
7934928 0.9046725630760193 -0.0004382571205496788
7940900 0.9048447012901306 -0.007275906391441822
7946872 0.9046531319618225 -0.014138609170913696
7952844 0.9055406451225281 -0.021162671968340874
7958816 0.9054361581802368 -0.027605626732110977
7964788 0.9054470658302307 -0.034243617206811905
7970760 0.9050495028495789 -0.041293635964393616
7976732 0.9050612449645996 -0.04815460741519928
7982704 0.9053255319595337 -0.05477435886859894
7988676 0.9047194123268127 -0.061285924166440964
7994648 0.9045602083206177 -0.0680050328373909
8000620 0.9040833115577698 -0.07457637786865234
8006592 0.903884768486023 -0.081306092441082
8012564 0.9035789966583252 -0.0881151333451271
8018536 0.9029080271720886 -0.09437093883752823
8024508 0.9027177691459656 -0.10086484253406525
8030480 0.9018239974975586 -0.10744981467723846
8036452 0.9014341831207275 -0.1138915866613388
8042424 0.9011481404304504 -0.12072251737117767
8048396 0.8998684883117676 -0.1266225129365921
8054368 0.8988312482833862 -0.13350027799606323
8060340 0.898597240447998 -0.14005444943904877
8066312 0.8976736664772034 -0.14643792808055878
8072284 0.8966602683067322 -0.15267306566238403
8078256 0.8954306244850159 -0.1585514396429062
8084228 0.894518256187439 -0.16539765894412994
8090200 0.8933190703392029 -0.17122945189476013
8096172 0.8929603695869446 -0.17800869047641754
8102144 0.8919296264648438 -0.18406814336776733
8108116 0.8904576897621155 -0.1904902458190918
8114088 0.8890448808670044 -0.19652247428894043
8120060 0.8877370953559875 -0.20271819829940796
8126032 0.8872004747390747 -0.2090568095445633
8132004 0.8855950832366943 -0.21487867832183838
8137976 0.8839400410652161 -0.22120684385299683
8143948 0.8825607299804688 -0.22733280062675476
8149920 0.8811880946159363 -0.23337598145008087
8155892 0.8800742626190186 -0.23961034417152405
8161864 0.8784429430961609 -0.24552388489246368
8167836 0.876490592956543 -0.25134220719337463
8173808 0.8748676776885986 -0.25758275389671326
8179780 0.8732394576072693 -0.2632184326648712
8185752 0.8719788193702698 -0.26938778162002563
8191724 0.8700931072235107 -0.2752453684806824
8197696 0.8678455948829651 -0.28105050325393677
8203668 0.8662139177322388 -0.28705939650535583
8209640 0.8647353053092957 -0.29285383224487305
8215612 0.8630803227424622 -0.2988751232624054
8221584 0.8609495162963867 -0.3046656847000122
8227556 0.8585674166679382 -0.3101905584335327
8233528 0.8570253849029541 -0.3161815404891968
8239500 0.8552051782608032 -0.32179102301597595
8245472 0.8531091213226318 -0.32757097482681274
8251444 0.8509792685508728 -0.33298295736312866
8257416 0.8485862016677856 -0.3390459418296814
8263388 0.8465859293937683 -0.34446975588798523
8269360 0.8443694114685059 -0.34983551502227783
8275332 0.8424611687660217 -0.3559543490409851
8281304 0.8400413990020752 -0.3609417676925659
8287276 0.8372588753700256 -0.3664729595184326
8293248 0.8352538347244263 -0.37230804562568665
8299220 0.8328414559364319 -0.37732991576194763
8305192 0.8308476209640503 -0.3834049701690674
8311164 0.828055202960968 -0.38845935463905334
8317136 0.8255365490913391 -0.39396923780441284
8323108 0.823442280292511 -0.3995540738105774
8329080 0.8208062648773193 -0.4044138491153717
8335052 0.8182662129402161 -0.41004496812820435
8341024 0.8153279423713684 -0.41501176357269287
8346996 0.8125430941581726 -0.42054808139801025
8352968 0.8105871081352234 -0.4257427752017975
8358940 0.8079591393470764 -0.43066519498825073
8364912 0.8051849603652954 -0.4364292621612549
8370884 0.8017919063568115 -0.4414149820804596
8376856 0.7991112470626831 -0.4467999339103699
8382828 0.7970918416976929 -0.45172712206840515
8388800 0.7941672205924988 -0.4567008912563324
8394772 0.7910774946212769 -0.46199339628219604
8400744 0.7829992771148682 -0.49124330282211304
8406716 0.7796226739883423 -0.4962988793849945
8412688 0.7763996124267578 -0.5010523796081543
8418660 0.7738737463951111 -0.5063759684562683
8424632 0.7703585028648376 -0.5108795166015625
8430604 0.7673525810241699 -0.515923798084259
8436576 0.7642054557800293 -0.5208179354667664
8442548 0.7608475685119629 -0.525490939617157
8448520 0.757880449295044 -0.5305799245834351
8454492 0.7540808320045471 -0.5350690484046936
8460464 0.7510547041893005 -0.5399621725082397
8466436 0.747545063495636 -0.5447021722793579
8472408 0.7442476153373718 -0.549612283706665
8478380 0.7411435842514038 -0.5539249777793884
